
Circuit: .options savecurrents

false = 0.000000e+00
true = 1.000000e+00
boltz = 1.380649e-23
c = 2.997925e+08
e = 2.718282e+00
echarge = 1.602177e-19
i = 0.000000e+00,1.000000e+00
kelvin = -2.73150e+02
no = 0.000000e+00
pi = 3.141593e+00
planck = 6.626070e-34
yes = 1.000000e+00
Doing analysis at TEMP = 27.000000 and TNOM = 27.000000


Initial Transient Solution
--------------------------

Node                                   Voltage
----                                   -------
vcc                                         12
in                                           0
in2                                          0
base                                   1.58092
coll                                    3.8942
emit                                  0.872632
emit2                                  4.70867
out                                          0
vin#branch                                   0
vcc#branch                          -0.0811493


No. of Data Rows : 1008
ERROR: (internal)  This operation is not defined for display type printf.
Can't open viewport for graphics.

The file "vo1.eps" may be printed on a postscript printer.
Doing analysis at TEMP = 27.000000 and TNOM = 27.000000


No. of Data Rows : 71
ERROR: (internal)  This operation is not defined for display type printf.
Can't open viewport for graphics.
ERROR: (internal)  This operation is not defined for display type printf.
Can't open viewport for graphics.

The file "vo1f.eps" may be printed on a postscript printer.
ERROR: (internal)  This operation is not defined for display type printf.
Can't open viewport for graphics.
ERROR: (internal)  This operation is not defined for display type printf.
Can't open viewport for graphics.

The file "vo2f.eps" may be printed on a postscript printer.
v(out)
0.0227007 0.0344219 0.0510581 0.0734573 0.101559 0.133828 0.16727 0.198319 0.224092 0.24309 0.255001 0.259979 0.257906 0.247787 0.227207 0.191642 0.133429 0.0401201 -0.108091 -0.34235 -0.711113 -1.28876 -2.18724 -3.56977 -5.66244 -8.75267 -13.1533 -19.1068 -26.6257 -35.3381 -44.4809 -53.1291 -60.542 -66.3771 -70.668 -73.665 -75.6788 -76.9889 -77.8099 -78.2901 -78.5216 -78.5498 -78.3803 -77.9791 -77.2676 -76.112 -74.3111 -71.588 -67.6049 -62.0266 -54.66 -45.6463 -35.594 -25.4868 -16.3473 -8.87583 -3.31316 0.457307 2.72454 3.81601 4.04561 3.70798 3.07242 2.35769 1.70628 1.1827 0.795331 0.524184 0.34124 0.220742 0.142601
v(coll)
-21.3792 -28.2103 -37.9115 -50.9864 -67.4187 -86.3479 -106.085 -124.636 -140.448 -152.839 -161.925 -168.266 -172.537 -175.342 -177.146 -178.28 -178.964 -179.336 -179.473 -179.402 -179.112 -178.544 -177.59 -176.079 -173.765 -170.331 -165.432 -158.798 -150.417 -140.703 -130.507 -120.861 -112.589 -106.072 -101.27 -97.9002 -95.6095 -94.0768 -93.0474 -92.3314 -91.7878 -91.3054 -90.7839 -90.1153 -89.1654 -87.7523 -85.6265 -82.458 -77.8507 -71.4144 -62.9235 -52.5392 -40.961 -29.3208 -18.7958 -10.1923 -3.78735 0.553216 3.16213 4.41646 4.67773 4.28547 3.55012 2.72394 1.97123 1.36635 0.918859 0.605651 0.394336 0.255154 0.164897
v(in)
1 1 1 1 1 1 1 1 1 1 1 1 1 1 1 1 1 1 1 1 1 1 1 1 1 1 1 1 1 1 1 1 1 1 1 1 1 1 1 1 1 1 1 1 1 1 1 1 1 1 1 1 1 1 1 1 1 1 1 1 1 1 1 1 1 1 1 1 1 1 1
v(out)/v(in)
                             .options savecurrents
                             AC Analysis  Tue May 18 23:54:22  2021
--------------------------------------------------------------------------------
Index   frequency       v(out)/v(in)                    
--------------------------------------------------------------------------------
0	1.000000e+01	2.270069e-02,	-1.06202e-02	
1	1.258925e+01	3.442187e-02,	-1.76452e-02	
2	1.584893e+01	5.105806e-02,	-2.98576e-02	
3	1.995262e+01	7.345732e-02,	-5.05575e-02	
4	2.511886e+01	1.015590e-01,	-8.41675e-02	
5	3.162278e+01	1.338283e-01,	-1.35718e-01	
6	3.981072e+01	1.672704e-01,	-2.09919e-01	
7	5.011872e+01	1.983192e-01,	-3.10492e-01	
8	6.309573e+01	2.240918e-01,	-4.40478e-01	
9	7.943282e+01	2.430901e-01,	-6.03451e-01	
10	1.000000e+02	2.550006e-01,	-8.04847e-01	
11	1.258925e+02	2.599790e-01,	-1.05288e+00	
12	1.584893e+02	2.579059e-01,	-1.35907e+00	
13	1.995262e+02	2.477872e-01,	-1.73862e+00	
14	2.511886e+02	2.272068e-01,	-2.21097e+00	
15	3.162278e+02	1.916421e-01,	-2.80059e+00	
16	3.981072e+02	1.334287e-01,	-3.53790e+00	
17	5.011872e+02	4.012006e-02,	-4.46050e+00	
18	6.309573e+02	-1.08091e-01,	-5.61430e+00	
19	7.943282e+02	-3.42350e-01,	-7.05446e+00	
20	1.000000e+03	-7.11113e-01,	-8.84531e+00	
21	1.258925e+03	-1.28876e+00,	-1.10581e+01	
22	1.584893e+03	-2.18724e+00,	-1.37640e+01	
23	1.995262e+03	-3.56977e+00,	-1.70188e+01	
24	2.511886e+03	-5.66244e+00,	-2.08332e+01	
25	3.162278e+03	-8.75267e+00,	-2.51239e+01	
26	3.981072e+03	-1.31533e+01,	-2.96488e+01	
27	5.011872e+03	-1.91068e+01,	-3.39515e+01	
28	6.309573e+03	-2.66257e+01,	-3.73766e+01	
29	7.943282e+03	-3.53381e+01,	-3.92261e+01	
30	1.000000e+04	-4.44809e+01,	-3.90400e+01	
31	1.258925e+04	-5.31291e+01,	-3.68305e+01	
32	1.584893e+04	-6.05420e+01,	-3.30718e+01	
33	1.995262e+04	-6.63771e+01,	-2.84543e+01	
34	2.511886e+04	-7.06680e+01,	-2.36074e+01	
35	3.162278e+04	-7.36650e+01,	-1.89546e+01	
36	3.981072e+04	-7.56788e+01,	-1.47039e+01	
37	5.011872e+04	-7.69889e+01,	-1.09049e+01	
38	6.309573e+04	-7.78099e+01,	-7.51197e+00	
39	7.943282e+04	-7.82901e+01,	-4.43003e+00	
40	1.000000e+05	-7.85216e+01,	-1.54185e+00	
41	1.258925e+05	-7.85498e+01,	1.278719e+00	
42	1.584893e+05	-7.83803e+01,	4.160964e+00	
43	1.995262e+05	-7.79791e+01,	7.234426e+00	
44	2.511886e+05	-7.72676e+01,	1.062477e+01	
45	3.162278e+05	-7.61120e+01,	1.444388e+01	
46	3.981072e+05	-7.43111e+01,	1.876830e+01	
47	5.011872e+05	-7.15880e+01,	2.359927e+01	
48	6.309573e+05	-6.76049e+01,	2.880049e+01	
49	7.943282e+05	-6.20266e+01,	3.402441e+01	
50	1.000000e+06	-5.46600e+01,	3.867100e+01	
51	1.258925e+06	-4.56463e+01,	4.195930e+01	
52	1.584893e+06	-3.55940e+01,	4.316912e+01	
53	1.995262e+06	-2.54868e+01,	4.196884e+01	
54	2.511886e+06	-1.63473e+01,	3.859384e+01	

Index   frequency       v(out)/v(in)                    
--------------------------------------------------------------------------------
55	3.162278e+06	-8.87583e+00,	3.371907e+01	
56	3.981072e+06	-3.31316e+00,	2.814415e+01	
57	5.011872e+06	4.573072e-01,	2.253465e+01	
58	6.309573e+06	2.724535e+00,	1.733335e+01	
59	7.943282e+06	3.816009e+00,	1.279374e+01	
60	1.000000e+07	4.045609e+00,	9.043772e+00	
61	1.258925e+07	3.707979e+00,	6.123191e+00	
62	1.584893e+07	3.072422e+00,	3.990969e+00	
63	1.995262e+07	2.357686e+00,	2.532868e+00	
64	2.511886e+07	1.706277e+00,	1.591474e+00	
65	3.162278e+07	1.182702e+00,	1.008415e+00	
66	3.981072e+07	7.953306e-01,	6.547428e-01	
67	5.011872e+07	5.241835e-01,	4.400317e-01	
68	6.309573e+07	3.412401e-01,	3.070302e-01	
69	7.943282e+07	2.207424e-01,	2.217687e-01	
70	1.000000e+08	1.426015e-01,	1.647964e-01	
lco                 =  8.880418e+03
uco                 =  1.603742e+06
v(in2)[40]/(v(in)[40]-v(in2)[40])/100*1000 = 5.638527e+01,-8.44302e+00
ngspice-31 done
